# XTP Review — `ahb2apb`

_Generated by vega_xtp_gen.py at 2026-06-08 17:34:02 using claude-opus-4-8._

## Summary

| Metric | Value |
|---|---|
| Source spec | `ahb2apb.pdf` |
| Features | 21 |
| Test cases | 90 |
| Categories | 7 |
| Quality score | 84% |
| Local lint | ✅ clean |

## Test Catalog

Quick-scan table for human review. Sorted by category, then test_id.

| Test ID | Category | Intent |
|---|---|---|
| `TEST_BRINGUP_INIT_001` | bringup_init | Verify that with PCLK tied to HCLK in a single clock domain, the bridge initializes to the documented clean idle reset state. |
| `TEST_BRINGUP_INIT_002` | bringup_init | Verify that PCLK is edge-aligned to HCLK throughout bringup so no clock-domain-crossing behavior is exercised. |
| `TEST_BRINGUP_INIT_003` | bringup_init | Verify the bridge in single-clock-domain config returns to idle on reset and accepts a new transfer immediately afterward. |
| `TEST_BRINGUP_INIT_004` | bringup_init | Verify that bringup operates under one clock domain only and no CDC handling (synchronizers, async resets) is exercised. |
| `TEST_CONNECTIVITY_001` | connectivity | Verify the HADDR address bus is fully connected by driving minimum and maximum address values and confirming the bridge captures and translates the... |
| `TEST_CONNECTIVITY_002` | connectivity | Verify the HWDATA write data bus is fully connected by driving walking/boundary patterns and confirming they appear on PWDATA. |
| `TEST_CONNECTIVITY_003` | connectivity | Verify a write followed by a read returns matching data through HRDATA, confirming read-data bus connectivity and write/read correspondence. |
| `TEST_CONNECTIVITY_004` | connectivity | Verify HCLK is connected and that all state progression and signal captures occur synchronously on HCLK rising edges. |
| `TEST_CONNECTIVITY_005` | connectivity | Verify HRESETn is connected by asserting reset and confirming all source-side and peripheral-side outputs assume their documented reset values. |
| `TEST_CONNECTIVITY_006` | connectivity | Verify PADDR drives both minimum and maximum address values correctly through the peripheral-side interface. |
| `TEST_CONNECTIVITY_007` | connectivity | Verify PWDATA correctly carries walking/boundary data patterns from source to peripheral side. |
| `TEST_CONNECTIVITY_008` | connectivity | Verify peripheral read data on PRDATA is correctly returned and read-back matches the value placed on PRDATA. |
| `TEST_CONNECTIVITY_009` | connectivity | Verify peripheral-side phase progression (SETUP->ACTIVE) advances only on PCLK rising edges. |
| `TEST_CONNECTIVITY_010` | connectivity | Verify PRESETn forces peripheral outputs to their defined reset values and the interface recovers after deassertion. |
| `TEST_RESET_001` | reset | Verify that asserting SOFT_RST while a transfer is active clears active transfer state and returns the model to a clean idle state. |
| `TEST_RESET_002` | reset | Verify SOFT_RST clears sticky STATUS error flags that were set by error scenarios. |
| `TEST_RESET_003` | reset | Verify SOFT_RST preserves configuration bits (TIMEOUT_VAL, TIMEOUT_EN, ENABLE) while clearing transient/sticky state. |
| `TEST_RESET_004` | reset | Verify the distinction between SOFT_RST behavior (preserves config) and full HRESETn hard reset (restores all defaults including CTRL). |
| `TEST_RESET_005` | reset | Verify that asserting hard reset while the bridge is idle returns all outputs and registers to their documented reset values. |
| `TEST_RESET_006` | reset | Verify that asserting hard reset while a transfer is in the ACTIVE/WAITING phase aborts the transfer cleanly and restores all reset values. |
| `TEST_RESET_007` | reset | Verify that hard reset clears sticky STATUS error bits (ERR_INT, TIMEOUT_ERR, PSLVERR, ADDR_ERR) and captured debug registers ERROR_ADDR/ERROR_INFO. |
| `TEST_RESET_008` | reset | Verify the bridge is immediately ready to accept and complete a new transfer on the first cycle after reset release, with all registers at reset va... |
| `TEST_REGISTER_ACCESS_001` | register_access | Verify STATUS register reflects its specified reset state with READY asserted and no sticky errors set. |
| `TEST_REGISTER_ACCESS_002` | register_access | Verify PSLVERR and aggregated ERR_INT sticky bits in STATUS are set and preserved after a target error event. |
| `TEST_REGISTER_ACCESS_003` | register_access | Verify Write-1-to-Clear behavior: a 1 in the written bit clears the corresponding sticky flag while 0 leaves others untouched. |
| `TEST_REGISTER_ACCESS_004` | register_access | Verify BUSY/READY reflect live model state and are immune to software writes. |
| `TEST_REGISTER_ACCESS_005` | register_access | Verify the CTRL register powers up to its specified reset value with ENABLE set and TIMEOUT_VAL=3'b111. |
| `TEST_REGISTER_ACCESS_006` | register_access | Verify R/W fields in CTRL accept programmed values and read back correctly. |
| `TEST_REGISTER_ACCESS_007` | register_access | Verify SOFT_RST bit write triggers a soft reset that clears sticky STATUS flags and preserves CTRL config bits. |
| `TEST_REGISTER_ACCESS_008` | register_access | Verify CTRL reserved bits remain 0 and are not affected by attempted writes of all-ones. |
| `TEST_REGISTER_ACCESS_009` | register_access | Verify ERROR_ADDR captures the source-side address of an address-error transaction. |
| `TEST_REGISTER_ACCESS_010` | register_access | Verify ERROR_INFO captures direction/beat/error-class context for a target-side (PSLVERR) error. |
| `TEST_REGISTER_ACCESS_011` | register_access | Verify both captured debug registers clear to 0x0000_0000 on hard reset. |
| `TEST_REGISTER_ACCESS_012` | register_access | Verify attempted APB writes to ERROR_ADDR/ERROR_INFO have no effect on stored value. |
| `TEST_REGISTER_ACCESS_013` | register_access | Verify a subsequent error overwrites the previously captured ERROR_ADDR. |
| `TEST_REGISTER_ACCESS_014` | register_access | Verify CTRL reset value and read/write behavior of writable bits via the peripheral-side register access path. |
| `TEST_REGISTER_ACCESS_015` | register_access | Verify STATUS reset value and write-1-to-clear semantics on sticky error bits while RO bits are unaffected. |
| `TEST_REGISTER_ACCESS_016` | register_access | Verify RO debug registers reset to 0, capture error context on an error event, and reject write attempts. |
| `TEST_REGISTER_ACCESS_017` | register_access | Verify each defined offset decodes to the correct register and that the 4-byte stride mapping is correct. |
| `TEST_MAIN_DATAPATH_001` | main_datapath | Verify a single (non-sequence) HTRANS=NONSEQ write transfer with HSIZE=word advances address correctly and completes as one target access (sequence... |
| `TEST_MAIN_DATAPATH_002` | main_datapath | Verify an incrementing multi-transfer sequence (NONSEQ then SEQ) with HSIZE=word produces target addresses advancing by 0x4 per beat, handled in-or... |
| `TEST_MAIN_DATAPATH_003` | main_datapath | Verify HSIZE-dependent address stride: a SEQ sequence with HSIZE=halfword advances target PADDR by 0x2 per beat, distinct from the word case. |
| `TEST_MAIN_DATAPATH_004` | main_datapath | Verify multi-transfer sequence data integrity by writing distinct patterns (all 1s, all 0s, alternating) then reading back and comparing, confirmin... |
| `TEST_MAIN_DATAPATH_005` | main_datapath | Verify a single source-side write (HADDR/HWDATA) is correctly captured and translated to a target-side write access (PADDR/PWDATA) following the ca... |
| `TEST_MAIN_DATAPATH_006` | main_datapath | Verify a source-side read translates to a target-side read access and that HRDATA reflects PRDATA only after target completion. |
| `TEST_MAIN_DATAPATH_007` | main_datapath | Verify data integrity across translation for all-ones, all-zeros, and alternating bit patterns on 32-bit HWDATA/PWDATA. |
| `TEST_MAIN_DATAPATH_008` | main_datapath | Verify address translation integrity at low, mid, and high 32-bit address boundaries. |
| `TEST_MAIN_DATAPATH_009` | main_datapath | Verify the strict two-phase target-side progression (setup then active) and that PENABLE is never asserted in the same cycle as the initial PSEL as... |
| `TEST_MAIN_DATAPATH_010` | main_datapath | Verify that a single PREADY=0 wait state holds the APB transfer in the ACTIVE phase and delays HREADY_OUT to the source side. |
| `TEST_MAIN_DATAPATH_011` | main_datapath | Verify that during a multi-cycle PREADY=0 stall on a read, HREADY_OUT stays low and HRDATA is presented only at the cycle PREADY=1. |
| `TEST_MAIN_DATAPATH_012` | main_datapath | Verify data integrity (all 1s, all 0s, alternating) survives PREADY back-pressure on consecutive writes and PWDATA is held stable during each stall. |
| `TEST_MAIN_DATAPATH_013` | main_datapath | Verify that persistent PREADY=0 with timeout enabled eventually terminates the held transfer and sets STATUS.TIMEOUT_ERR, while HREADY_OUT remains ... |
| `TEST_MAIN_DATAPATH_014` | main_datapath | Verify a single read transfer returns PRDATA on HRDATA only after the target-side active phase completes (PREADY=1). |
| `TEST_MAIN_DATAPATH_015` | main_datapath | Verify HRDATA is NOT returned and source completion is gated while target is stalled (PREADY=0), then returns correct data once PREADY asserts. |
| `TEST_MAIN_DATAPATH_016` | main_datapath | Verify the read-data return path preserves data integrity for all-1s, all-0s, and alternating bit patterns from PRDATA to HRDATA. |
| `TEST_MAIN_DATAPATH_017` | main_datapath | Verify read data returned on HRDATA correlates with the correct target address across the 32-bit address range (low, mid, high). |
| `TEST_MAIN_DATAPATH_018` | main_datapath | Verify that when target signals PSLVERR=1, HRESP=1 (error) is returned and the read-data return path reflects the error rather than valid data deli... |
| `TEST_PROTOCOL_001` | protocol | Verify that an accepted source-side request is captured and translated into a target-side SETUP phase with correct PSEL/PENABLE signaling and timing. |
| `TEST_PROTOCOL_002` | protocol | Verify the target active phase completes correctly when PREADY asserts and source-side completion (HREADY_OUT) is then released. |
| `TEST_PROTOCOL_003` | protocol | Verify that during a target stall the ACTIVE phase signals remain stable and HREADY_OUT stays low until PREADY asserts. |
| `TEST_PROTOCOL_004` | protocol | Verify on a read transfer that HRDATA is not presented to the source until target completion (PREADY=1) occurs in the active phase. |
| `TEST_PROTOCOL_005` | protocol | Verify that a single target stall (PREADY=0) holds PENABLE asserted and delays HREADY_OUT until PREADY=1. |
| `TEST_PROTOCOL_006` | protocol | Verify PSEL, PENABLE, PADDR remain stable and HREADY_OUT remains deasserted across several consecutive PREADY=0 wait cycles. |
| `TEST_PROTOCOL_007` | protocol | Verify that HRDATA is not presented as valid until PREADY=1 completes the target access, and HREADY_OUT gating matches. |
| `TEST_PROTOCOL_008` | protocol | Verify the bridge correctly releases back-pressure after a stalled transfer and accepts a new transfer with proper PSEL/PENABLE sequencing. |
| `TEST_PROTOCOL_009` | protocol | Verify the IDLE-to-SETUP transition asserts PSEL with PENABLE deasserted on the first target-side cycle. |
| `TEST_PROTOCOL_010` | protocol | Verify the SETUP-to-ACTIVE transition asserts PENABLE while keeping PSEL high. |
| `TEST_PROTOCOL_011` | protocol | Verify ACTIVE self-loop on PREADY=0 and stability of PSEL/PENABLE during wait states. |
| `TEST_PROTOCOL_012` | protocol | Verify handshake completion (PREADY=1) returns FSM to IDLE and deasserts PSEL/PENABLE. |
| `TEST_PROTOCOL_013` | protocol | Verify the complete state-machine sequence with correct PSEL/PENABLE/PREADY timing across all phases. |
| `TEST_PROTOCOL_014` | protocol | Verify HRESP=0 (OK) is asserted on the source side at completion of a normal write transfer with no target error. |
| `TEST_PROTOCOL_015` | protocol | Verify HRESP=1 (error) is driven on the source side when PSLVERR=1 is asserted during the target active phase. |
| `TEST_PROTOCOL_016` | protocol | Verify HRESP=1 (error) on the source side when a target timeout occurs (PREADY never asserted within window). |
| `TEST_PROTOCOL_017` | protocol | Verify HRESP remains 0 (no premature/spurious error) throughout target wait states and resolves to OK at completion when PREADY finally asserts wit... |
| `TEST_ERROR_001` | error | Verify that a request to an invalid address range sets ADDR_ERR, returns HRESP error, captures ERROR_ADDR, and that the model recovers cleanly and ... |
| `TEST_ERROR_002` | error | Verify that the first address immediately above the highest valid range triggers ADDR_ERR while the last valid address does not, and that ERROR_ADD... |
| `TEST_ERROR_003` | error | Verify that an invalid-address READ transaction is detected, ERROR_ADDR captures the read address, ERROR_INFO captures read direction, and HRDATA i... |
| `TEST_ERROR_004` | error | Verify address error detection on a request following a valid in-flight transfer, then verify hard/soft reset cleanly aborts and clears sticky ADDR... |
| `TEST_ERROR_005` | error | Verify a timeout error is detected, captured in STATUS, and logged when PREADY is never asserted within the programmed window. |
| `TEST_ERROR_006` | error | Verify that with TIMEOUT_EN=0 a prolonged PREADY=0 stall does not set TIMEOUT_ERR or HRESP, but instead holds completion (negative/control test). |
| `TEST_ERROR_007` | error | Verify timeout error sets both TIMEOUT_ERR and aggregated ERR_INT when interrupt indication is enabled, captures debug context, and both clear via ... |
| `TEST_ERROR_008` | error | Verify the timeout window boundary: just-in-time PREADY completes without error, while one-cycle-late PREADY triggers TIMEOUT_ERR. |
| `TEST_ERROR_009` | error | Verify a single target-side error (PSLVERR=1) during an active access is detected, propagated to HRESP, captured in ERROR_INFO/STATUS, and the mode... |
| `TEST_ERROR_010` | error | Verify target error injected on a read transfer is captured with read direction in ERROR_INFO, HRDATA is not treated as valid completion, and recov... |
| `TEST_ERROR_011` | error | Verify the sticky behavior of STATUS.PSLVERR after a target error — flag persists across subsequent good (non-error) traffic and is only removed by... |
| `TEST_ERROR_012` | error | Verify target error injected on a specific beat of an ordered multi-transfer sequence is captured with beat index/context in ERROR_INFO and that er... |
| `TEST_ERROR_013` | error | Verify a target error (PSLVERR) during the active phase produces HRESP=1 on the source side within the error response window, and the error is logg... |
| `TEST_ERROR_014` | error | Verify the precise cycle timing of HRESP assertion relative to PSLVERR sampling and the error response window before HREADY_OUT completes. |
| `TEST_ERROR_015` | error | Verify the address-error class generates HRESP=1, sets ADDR_ERR sticky, captures the offending address, and is recoverable, distinct from a target ... |
| `TEST_ERROR_016` | error | Verify a target error transfer immediately followed (after clear) by a normal transfer does not produce a stale HRESP or stale sticky bits, proving... |

## Audit Findings (Stage A.3)

### 🟢 Auto-added missing features
- `read_data_return_path` (stub added; Stage B generated tests for it)
- `hresp_error_indication_output` (stub added; Stage B generated tests for it)

### 🟢 Auto-removed duplicates
- `error_handling_intent`

### 🟢 Auto-reclassified features
- error_response_timing: protocol → error (Although it is a timing diagram, it describes the DUT error response behavior (target error -> source error response window), which belongs with the error scenario behaviors rather than generic protocol phase progression.)

### ⚠️  Flagged for review — features that may need splitting

These were NOT auto-split. Review and decide.

- **`ctrl_register_access`** — *CTRL register (page 9) defines multiple independently-testable R/W fields with distinct behaviors: ENABLE (bridge activity), SOFT_RST (model-local reset trigger), TIMEOUT_EN, TIMEOUT_VAL (timeout window selection), ERR_INT_EN (sticky interrupt enable).*
  - Proposed sub-features: `ctrl_enable_field`, `ctrl_timeout_en_field`, `ctrl_timeout_val_field`, `ctrl_err_int_en_field`, `ctrl_soft_rst_field`
- **`status_register_access`** — *STATUS register (page 9) defines multiple separately-testable fields with mixed access types: ERR_INT (W1C sticky aggregate), TIMEOUT_ERR (W1C), PSLVERR (W1C), ADDR_ERR (W1C), BUSY (RO), READY (RO).*
  - Proposed sub-features: `status_err_int_sticky`, `status_timeout_err_sticky`, `status_pslverr_sticky`, `status_addr_err_sticky`, `status_busy_ro`, `status_ready_ro`
- **`captured_debug_registers`** — *ERROR_ADDR and ERROR_INFO (page 9) are two distinct read-only debug capture registers with different captured content (address vs. transfer direction/beat index/error class).*
  - Proposed sub-features: `error_addr_capture`, `error_info_capture`

## Generation Stages

| Stage | Status | Note |
|---|---|---|
| A.1 standard discovery | ✅ ok | 20 features |
| A.2 misc catch | ✅ ok | 0 miscellaneous |
| A.3 audit | ✅ ok | +2 -1 ~1 ⚠3 |
| B per-feature gen | ✅ ok | 21 ok, 0 stubs |
| D.1 local lint | ✅ ok | clean |

## How to Refine This XTP

AI is not perfect. Use Claude Code CLI to refine:

```cmd
cd ch02_testplan
claude
> "Read the review file and the .xtp. Help me address the flagged items."
```
